! Version 1.0
! Name        :	Delta-VF.s2p
! Measurement : Delta
! Date        :	25-06-24 11:37:28
! Generated by:	MiQVNA
# HZ S RI R 50
! Freq	ReS11	ImS11	ReS21	ImS21	ReS12	ImS12	ReS22	ImS22	ReS13	ImS13	ReS23	ImS23
400000000	1.66303803844668E-03	-1.16194939857136E-02	0.469787169860659	-0.171431901106237	0.468722884178735	-0.172313122419488	3.96288065540604E-03	-2.81549371443543E-02	0	0	0	0
420000000	1.64724259697393E-03	-1.16848840405851E-02	0.465318345284209	-0.179053518324786	0.46485946003335	-0.179500536953691	0.003824371036393	-2.85709590831936E-02	0	0	0	0
440000000	1.31062257435344E-03	-1.28537168259391E-02	0.462334255985944	-0.186503070908545	0.462091613775746	-0.186939596572543	2.86488558825264E-03	-3.06891932563705E-02	0	0	0	0
460000000	4.55395789384622E-04	-1.27192382323734E-02	0.459179259896815	-0.19401703321984	0.459424858298271	-0.194859299775521	2.77670546189164E-03	-3.29722948202098E-02	0	0	0	0
480000000	-1.08328876548142E-03	-1.29089265335974E-02	0.45493910632735	-0.202035024340511	0.45548613134427	-0.2017388804137	2.81573734667469E-03	-3.44871737385976E-02	0	0	0	0
500000000	-1.68277044766657E-03	-1.39032783987245E-02	0.450469448572073	-0.210026356476442	0.451290391743389	-0.209226415763181	2.10511160949505E-03	-3.49366946925153E-02	0	0	0	0
520000000	-3.44357234952341E-03	-0.013661037626756	0.446499831085986	-0.218224051100468	0.446823055254905	-0.21660001388897	1.45553424962026E-03	-3.56531718791074E-02	0	0	0	0
540000000	-4.88143064652405E-03	-1.51004729970681E-02	0.441588981896134	-0.226583072226327	0.441810480855597	-0.224930419278733	-1.22911898532092E-04	-3.69231722497224E-02	0	0	0	0
560000000	-6.16916271873735E-03	-1.65136716064499E-02	0.437196886393074	-0.235691733560878	0.436928797205024	-0.233833946754433	-1.30191960385895E-03	-3.87487475458292E-02	0	0	0	0
580000000	-6.65134245006336E-03	-1.72741201607362E-02	0.434419974936695	-0.244778714506853	0.431737233302048	-0.243578996303576	-1.74325035446321E-03	-3.97586717603336E-02	0	0	0	0
600000000	-8.51883695081762E-03	-1.89424116693577E-02	0.431279677278844	-0.252061418315327	0.4280224920661	-0.253038972109786	-3.57240236424826E-03	-4.18134108394809E-02	0	0	0	0
620000000	-9.01806906174355E-03	-1.84388539933283E-02	0.428149866007894	-0.258199349125062	0.425406936786653	-0.26188261350071	-4.72037007187963E-03	-4.33116189284379E-02	0	0	0	0
640000000	-1.05516071730832E-02	-1.99458228502137E-02	0.422620300295862	-0.263977303116193	0.421124612602891	-0.268204051754093	-5.57266784864818E-03	-4.48765410463361E-02	0	0	0	0
660000000	-1.16146929512715E-02	-2.05574602189561E-02	0.418286355470911	-0.270405470165385	0.416038483280277	-0.275267742905487	-6.85214067829739E-03	-4.60556243600208E-02	0	0	0	0
680000000	-1.43227750817398E-02	-2.12137905853884E-02	0.406521358451847	-0.280803253963135	0.407615023798021	-0.281034619645606	-8.43362989956668E-03	-4.85027943449279E-02	0	0	0	0
700000000	-1.45529296564535E-02	-0.022119230369226	0.402723522780702	-0.286780696714376	0.403253132629061	-0.28878850443994	-9.32026271687301E-03	-5.13731147659504E-02	0	0	0	0
720000000	-1.57563734938222E-02	-2.39735856978796E-02	0.398334102500582	-0.293311329712981	0.397377835983704	-0.294634592839338	-1.04185708749598E-02	-5.24276735052151E-02	0	0	0	0
740000000	-1.74660743065281E-02	-2.40300541363419E-02	0.393832459927153	-0.300014015791946	0.393066886147185	-0.30266760188037	-1.17053626624892E-02	-5.52364602520593E-02	0	0	0	0
760000000	-1.77053361225594E-02	-2.48450759321842E-02	0.38905061503466	-0.306633818538886	0.387926575116788	-0.308786091765227	-1.24371383185395E-02	-5.62134800303515E-02	0	0	0	0
780000000	-1.91102965197287E-02	-2.46589258611003E-02	0.38375469117149	-0.312820465649142	0.381618842362974	-0.314922524230351	-1.27143967284817E-02	-0.057453103818199	0	0	0	0
800000000	-2.15877590280593E-02	-2.48322350822335E-02	0.378181821468699	-0.318625268748581	0.377068801633284	-0.321329166662015	-1.42565837646262E-02	-5.94540593239776E-02	0	0	0	0
820000000	-2.37427596791235E-02	-2.66669719851116E-02	0.370422798495593	-0.324988768100928	0.3721343342994	-0.326446854582135	-1.49761841808393E-02	-6.02898574054417E-02	0	0	0	0
840000000	-2.42180578043421E-02	-2.70674157187445E-02	0.36306781083654	-0.331811927476505	0.36524492950885	-0.331367054887744	-1.58874051299545E-02	-6.22786938040973E-02	0	0	0	0
860000000	-2.59814478554776E-02	-2.79224397996735E-02	0.356639437779656	-0.339466208789722	0.358749086144646	-0.33784818729083	-1.75509096433989E-02	-6.35628893140444E-02	0	0	0	0
880000000	-2.74483654990971E-02	-2.82021520941195E-02	0.350896873504038	-0.345648847774402	0.3505951342445	-0.345074687228334	-1.79256054796341E-02	-0.065054221427969	0	0	0	0
900000000	-2.82900529382314E-02	-2.78783596882849E-02	0.345671999060165	-0.35093245889804	0.344384085796184	-0.35280001608639	-1.89718812806081E-02	-6.54829069201366E-02	0	0	0	0
920000000	-3.02297499792885E-02	-2.82126859680923E-02	0.340415776407078	-0.355875154359632	0.339903765327569	-0.359330868899984	-2.01483104533476E-02	-6.76772463787574E-02	0	0	0	0
940000000	-3.22344748033164E-02	-2.70231854100967E-02	0.332980833258322	-0.359969228490202	0.33567775551033	-0.365533338576076	-2.11786459128227E-02	-6.68911693203222E-02	0	0	0	0
960000000	-3.31592800934043E-02	-2.75409482968456E-02	0.324921591316106	-0.364510795147095	0.329995151003587	-0.369935371787553	-2.25106021611396E-02	-6.96807701735231E-02	0	0	0	0
980000000	-3.58003554193255E-02	-0.028872413683613	0.316503543586309	-0.370490905787555	0.320799137084939	-0.373664938578727	-2.46084900470425E-02	-6.96218674283385E-02	0	0	0	0
1000000000	-3.63501374951228E-02	-0.028490116839432	0.311082194468998	-0.3783001677974	0.310387590231627	-0.378105703120142	-2.64145048472456E-02	-7.08516205150146E-02	0	0	0	0
1020000000	-0.037969079094212	-2.76639799817241E-02	0.308927021513397	-0.383997692099742	0.300341728735052	-0.385336327511792	-2.73411535480207E-02	-7.20386052860876E-02	0	0	0	0
1040000000	-4.07689562818309E-02	-2.79976108219083E-02	0.305677138298113	-0.385836561851498	0.293175326269324	-0.394122575434374	-2.76111840791979E-02	-7.27247314135482E-02	0	0	0	0
1060000000	-4.33760956865479E-02	-2.76599067632627E-02	0.296759202800949	-0.384703599778921	0.290730808729872	-0.398205985370764	-2.98758687015973E-02	-7.18077421925953E-02	0	0	0	0
1080000000	-4.53726261395144E-02	-2.83650925279215E-02	0.283026001024156	-0.390293432688496	0.284907926634448	-0.396383487922321	-3.16281998238776E-02	-7.23666374512455E-02	0	0	0	0
1100000000	-4.71566074348554E-02	-2.83215816156748E-02	0.272687326445686	-0.400321459907013	0.273965660220629	-0.397387433227827	-3.38849203294931E-02	-7.35133102156054E-02	0	0	0	0
1120000000	-4.84179198308439E-02	-2.82507679796361E-02	0.266863523246478	-0.407830345996632	0.26281245113866	-0.402534839398743	-3.61400286972934E-02	-7.48399856934856E-02	0	0	0	0
1140000000	-5.01271327376293E-02	-2.74756902244736E-02	0.261275768990064	-0.411840870746229	0.254349882654484	-0.408801332378651	-3.72952093988009E-02	-7.61509440278037E-02	0	0	0	0
1160000000	-5.18681503846504E-02	-2.72886998357804E-02	0.252855289858563	-0.413604255221167	0.247942638789537	-0.415843242323709	-3.94254744022837E-02	-0.077989753459741	0	0	0	0
1180000000	-5.26145754432835E-02	-2.59774361452865E-02	0.245144394119412	-0.417070617002706	0.24234415164766	-0.422666000834345	-4.08910907537119E-02	-7.78932918255885E-02	0	0	0	0
1200000000	-0.0555696680356	-2.65320725478022E-02	0.23745943582574	-0.420056193976087	0.237787581063602	-0.42730198774898	-0.041924428062405	-0.078683946191169	0	0	0	0
1220000000	-5.75772988358424E-02	-2.56852846382694E-02	0.230371257414293	-0.423645735019673	0.231178252249223	-0.430117781312416	-0.043027451110522	-7.83790140207389E-02	0	0	0	0
1240000000	-5.93134997831696E-02	-2.63011621888843E-02	0.224185615164439	-0.42599477383121	0.224208407596179	-0.431638784167176	-4.43125966522492E-02	-7.89090893808719E-02	0	0	0	0
1260000000	-6.05262403698724E-02	-2.62022946472172E-02	0.217253377388692	-0.42842816008898	0.214450512367258	-0.433574855824292	-4.50094275861742E-02	-8.00663813144478E-02	0	0	0	0
1280000000	-6.39289461194472E-02	-2.58677407884118E-02	0.210744297297862	-0.431610672578343	0.206254564736671	-0.435650925798158	-4.63762474789704E-02	-0.080526792485608	0	0	0	0
1300000000	-6.46320554172147E-02	-2.54471926494364E-02	0.203819656842262	-0.432344757930408	0.197701412773804	-0.438952523512699	-4.56637475665024E-02	-8.09297218054746E-02	0	0	0	0
1320000000	-6.42811539873372E-02	-2.42425561434672E-02	0.195306755842245	-0.435472360747747	0.191110623169212	-0.439285606036616	-0.046723709779229	-8.12317113581972E-02	0	0	0	0
1340000000	-6.60438191151942E-02	-2.56692316450349E-02	0.186453455428912	-0.439001691556495	0.183627650102925	-0.438862297556344	-4.85049958380082E-02	-8.14906626757525E-02	0	0	0	0
1360000000	-6.73238186378584E-02	-2.48132075843128E-02	0.178256262683386	-0.442450755428509	0.17505343155913	-0.439805651847627	-5.07229163897843E-02	-0.081503583096407	0	0	0	0
1380000000	-6.95572384605278E-02	-2.30774489877063E-02	0.168848729652617	-0.444866987049517	0.167662686573547	-0.443083948117294	-5.17000572327182E-02	-8.20099538952465E-02	0	0	0	0
1400000000	-7.03828180077399E-02	-2.17514947186513E-02	0.160122267853632	-0.447750747301222	0.160656802604019	-0.446614509273502	-0.052675423445212	-8.14753529471912E-02	0	0	0	0
1420000000	-7.16233144938764E-02	-2.10774519957098E-02	0.152473229856498	-0.448656883558355	0.153769964387423	-0.449366796805457	-5.33809797124259E-02	-8.20860272839841E-02	0	0	0	0
1440000000	-7.31755487477983E-02	-1.83673017583937E-02	0.144763159329396	-0.450472479588151	0.14679354843127	-0.45260377637676	-5.39989029331566E-02	-8.14725128325861E-02	0	0	0	0
1460000000	-7.49519774789176E-02	-1.93030695033561E-02	0.13935841663894	-0.451183988497226	0.140066678031099	-0.456685432880971	-5.54294751466694E-02	-8.25345899975966E-02	0	0	0	0
1480000000	-7.74597975203416E-02	-1.78330898986229E-02	0.132945764169975	-0.451728459004779	0.13123021347872	-0.460156641371635	-5.61914804198006E-02	-8.16701613576681E-02	0	0	0	0
1500000000	-7.88656115626698E-02	-0.016208937312379	0.128543880711016	-0.451722594851913	0.122851624711409	-0.46228648103908	-5.48759645622091E-02	-8.11911848390853E-02	0	0	0	0
1520000000	-7.97704719309581E-02	-1.51003030396792E-02	0.123074961076312	-0.450975771488647	0.116111669109222	-0.464984005977488	-5.49228844152276E-02	-7.86808344215072E-02	0	0	0	0
1540000000	-8.25499472029125E-02	-1.59118393879857E-02	0.115962706374976	-0.452342671766219	0.109411071329243	-0.465819285720129	-5.71592881503037E-02	-7.79443507524616E-02	0	0	0	0
1560000000	-8.28597866425128E-02	-1.44861611624485E-02	0.109374546284036	-0.454898443733546	0.101385614451046	-0.464270087156743	-5.97808206737712E-02	-7.71419892340176E-02	0	0	0	0
1580000000	-8.36498634387308E-02	-1.45388861023641E-02	0.103938922571946	-0.45696152340187	8.98723684271742E-02	-0.463759162888333	-5.94793314470431E-02	-7.75000347804129E-02	0	0	0	0
1600000000	-8.57628350094568E-02	-1.34460797986746E-02	9.60316252249342E-02	-0.457668314392712	8.04833897196458E-02	-0.463349842150785	-6.15921534207943E-02	-7.67504385495536E-02	0	0	0	0
1620000000	-8.68139927500735E-02	-1.22722700952168E-02	8.71455587935032E-02	-0.459939213916236	7.34756603837088E-02	-0.464989765210865	-6.33375537547218E-02	-7.56531157318154E-02	0	0	0	0
1640000000	-8.87551477322055E-02	-1.11560847758431E-02	7.85140458880255E-02	-0.463735977463723	6.61174418180348E-02	-0.465239165541899	-6.53767216089472E-02	-7.50779985354003E-02	0	0	0	0
1660000000	-8.83355999251803E-02	-1.01572898315895E-02	7.01241326725606E-02	-0.466808107757493	5.67190486213434E-02	-0.465484806111962	-6.65644142694821E-02	-0.075776343892966	0	0	0	0
1680000000	-9.03201282554846E-02	-9.40540941057797E-03	0.062506505219161	-0.467432208121957	4.85764790787543E-02	-0.468113289128859	-6.83293929823365E-02	-7.55380775348422E-02	0	0	0	0
1700000000	-9.21194510719856E-02	-8.70205135676969E-03	5.17903343701438E-02	-0.471799100174414	3.96138632071332E-02	-0.4689642295282	-6.94364637954597E-02	-7.58033199413532E-02	0	0	0	0
1720000000	-9.27404762552839E-02	-6.74146758953455E-03	4.41338046438296E-02	-0.473005082234306	3.44958659504312E-02	-0.47209513968798	-6.98160170814875E-02	-7.42496306842656E-02	0	0	0	0
1740000000	-9.45786427458832E-02	-6.71865473752301E-03	3.54607928289897E-02	-0.473368368810413	2.86112725452815E-02	-0.47171464899019	-7.02172295140587E-02	-7.44633270828714E-02	0	0	0	0
1760000000	-9.67336707474403E-02	-6.03562019800334E-03	2.67793677311448E-02	-0.473399515537728	2.22321788175338E-02	-0.471351979757922	-6.94824812387843E-02	-7.39467583248256E-02	0	0	0	0
1780000000	-9.62045130081247E-02	-6.75500963105906E-03	1.90421394232467E-02	-0.472587881169518	1.46301023435886E-02	-0.470222589097443	-7.11830058398678E-02	-7.36774559035032E-02	0	0	0	0
1800000000	-9.85872897777527E-02	-4.97392625528429E-03	0.011529364065042	-0.47144025209659	8.48117530161558E-03	-0.470763350717441	-7.17292677332977E-02	-7.32996953463036E-02	0	0	0	0
1820000000	-0.100250938402275	-4.40336270731744E-03	4.3223725528932E-03	-0.470370581351059	7.21491019084215E-04	-0.46993580318487	-0.071745983403739	-7.23695507028013E-02	0	0	0	0
1840000000	-0.101533667861155	-4.12264154314643E-03	-2.17667533924282E-03	-0.468307977039252	-6.92457068360857E-03	-0.467875209421107	-7.28826074079249E-02	-7.23036039765668E-02	0	0	0	0
1860000000	-0.102407179208438	-3.40213988962665E-03	-8.44147686900963E-03	-0.466121504631705	-1.54475217929181E-02	-0.465903521740285	-7.43711725390607E-02	-7.24527203274546E-02	0	0	0	0
1880000000	-0.102102370282253	-4.31139473578785E-03	-1.55514333792544E-02	-0.462633419346837	-2.39664324377883E-02	-0.462094032747289	-7.42243591134057E-02	-7.18511798829737E-02	0	0	0	0
1900000000	-0.102940040217564	-3.01625819879526E-03	-2.37214275654294E-02	-0.461181782389449	-3.37215155001492E-02	-0.45993254890324	-7.56466020983181E-02	-7.17218517600605E-02	0	0	0	0
1920000000	-0.104067699016968	-2.47253327605857E-03	-3.11968324281902E-02	-0.461812820928449	-0.042324664003055	-0.458538768051343	-7.54151431134807E-02	-7.16641553677913E-02	0	0	0	0
1940000000	-0.104970236500691	-8.51967477466578E-04	-0.039303864916727	-0.462964984937691	-4.89459315674323E-02	-0.457241441887448	-7.52714018705081E-02	-7.17363453677962E-02	0	0	0	0
1960000000	-0.104627901342609	-1.29979452142781E-03	-4.78409043655429E-02	-0.460512598808769	-5.39363375475407E-02	-0.456123401685714	-7.62513681524426E-02	-7.11540485303864E-02	0	0	0	0
1980000000	-0.105351787629909	-7.25994450956046E-04	-5.49191068517485E-02	-0.460029145043491	-6.09937738913233E-02	-0.454955790854665	-7.70960068094432E-02	-7.18166198509871E-02	0	0	0	0
2000000000	-0.105595797786464	1.46980550732553E-03	-0.063480211265045	-0.461333650155296	-6.65031025447106E-02	-0.455506261933886	-7.73512486648656E-02	-7.07146434673649E-02	0	0	0	0
2020000000	-0.107238141728965	1.76948384414317E-03	-7.02912595357684E-02	-0.461270726764077	-7.17979524805901E-02	-0.456192281510759	-7.79678694787155E-02	-7.01248431202867E-02	0	0	0	0
2040000000	-0.108208985371342	1.51771915534106E-03	-7.61131506331793E-02	-0.460039587041219	-7.62018442314791E-02	-0.456624062672769	-7.68375079544958E-02	-6.99555814717414E-02	0	0	0	0
2060000000	-0.10923412765613	1.27466704911949E-03	-8.18537299940536E-02	-0.457804100699136	-0.082014738920564	-0.457326621776844	-7.85376045835664E-02	-7.02424397230073E-02	0	0	0	0
2080000000	-0.110200590894353	4.28005886390416E-03	-8.68929692514551E-02	-0.454306680905044	-0.088484183368294	-0.456493603965961	-7.89701796453144E-02	-6.84605820818643E-02	0	0	0	0
2100000000	-0.110672948163842	3.59169255450296E-03	-9.20529520865997E-02	-0.450985071270349	-9.61421227303665E-02	-0.45721007619413	-7.94020606425018E-02	-6.74769342116888E-02	0	0	0	0
2120000000	-0.112737381993263	4.16147865144062E-03	-0.097087149882794	-0.447356191164879	-0.104044305892146	-0.456144948229947	-8.07010611224206E-02	-6.70933907180491E-02	0	0	0	0
2140000000	-0.114739310105926	4.87832181761656E-03	-0.103146551161561	-0.444643484955001	-0.111568062202093	-0.453313358283556	-0.081835747131912	-6.76017333019424E-02	0	0	0	0
2160000000	-0.115044158371861	4.18738312476719E-03	-0.108650414313407	-0.442530455736781	-0.119870458952395	-0.450404967114108	-8.12391348266303E-02	-6.71257272021183E-02	0	0	0	0
2180000000	-0.115063951917752	3.75822115866304E-03	-0.115208834982098	-0.441527512772919	-0.130349201418884	-0.446722791977609	-0.081581957554401	-6.65755961503289E-02	0	0	0	0
2200000000	-0.116508301861675	4.05178316568313E-03	-0.120398695583415	-0.441829482130508	-0.140476676168139	-0.443945161544886	-8.32328615178189E-02	-6.48733005419238E-02	0	0	0	0
2220000000	-0.117308826792133	3.18615411891484E-03	-0.128808548379549	-0.442779485316076	-0.148563220119388	-0.4410257223555	-8.37656103024088E-02	-6.59723416770465E-02	0	0	0	0
2240000000	-0.116175130689676	2.67366217026686E-03	-0.136885769230013	-0.445819772400282	-0.156682336486266	-0.438269232091952	-0.083403228267826	-6.60638833058433E-02	0	0	0	0
2260000000	-0.117315165306146	1.04917407796216E-03	-0.145035503140359	-0.445988906449187	-0.163325450028323	-0.435408659434588	-0.084244641932229	-6.55516166134485E-02	0	0	0	0
2280000000	-0.117976059327533	9.72960455094937E-04	-0.153015105479237	-0.445460395634901	-0.1700091826184	-0.433628295258201	-8.54595452420546E-02	-0.066089945606496	0	0	0	0
2300000000	-0.117562809691769	3.13354984305901E-04	-0.162745513174609	-0.444758226734321	-0.175752866074165	-0.431297834814205	-0.08604428153505	-6.60597887759161E-02	0	0	0	0
2320000000	-0.119091288293189	-5.69654745031658E-04	-0.1728907162021	-0.444063258309504	-0.181999992842736	-0.429720979139619	-8.59510754110704E-02	-6.62277871050964E-02	0	0	0	0
2340000000	-0.11898263921351	4.50478900233616E-05	-0.180302302121182	-0.441673924655266	-0.189178181668037	-0.42894576949368	-8.69376437447291E-02	-0.068218474948129	0	0	0	0
2360000000	-0.119461657411459	-1.77840078425915E-03	-0.188548862670079	-0.437193542341834	-0.194908623827907	-0.427573739397396	-8.81522186978895E-02	-6.88290581848307E-02	0	0	0	0
2380000000	-0.12075790950771	-1.26247905427021E-03	-0.197233420424868	-0.432460449486724	-0.201743053653683	-0.424666648713638	-8.81795868424842E-02	-6.83152439162258E-02	0	0	0	0
2400000000	-0.119340843512629	-2.77450902996485E-03	-0.20490867724298	-0.427358247329274	-0.209839974511856	-0.421937725577175	-8.86091125559811E-02	-6.98485194032245E-02	0	0	0	0
2420000000	-0.122127643701279	-1.96234353537046E-03	-0.212280589995404	-0.422104982246239	-0.218190914887247	-0.418066573566298	-9.03222023659725E-02	-6.95353870995264E-02	0	0	0	0
2440000000	-0.121517989422345	-3.04007628595106E-03	-0.220298270896899	-0.416059761810612	-0.225985736523325	-0.413065632422266	-8.95573856301102E-02	-6.78280636256507E-02	0	0	0	0
2460000000	-0.120828437140936	-1.93619282388126E-03	-0.227860578840149	-0.41040230443546	-0.234778510481744	-0.407259979694496	-8.94277113972108E-02	-6.79040285032062E-02	0	0	0	0
2480000000	-0.123694307064721	-2.48717733763876E-03	-0.236811361898717	-0.404715634076101	-0.243632028605466	-0.400594823246535	-9.12531975936484E-02	-6.67859477147347E-02	0	0	0	0
2500000000	-0.124236600439183	-2.73631534690342E-03	-0.244224411371787	-0.400431420169395	-0.252311304771669	-0.394009753996063	-9.15652124718298E-02	-6.74871022470676E-02	0	0	0	0
2520000000	-0.123552324389692	-1.5863093682424E-03	-0.250909373223533	-0.395617033050802	-0.260139447842565	-0.388477113513018	-9.18048401903768E-02	-6.61119469240789E-02	0	0	0	0
2540000000	-0.125095059556013	-2.94258041962521E-03	-0.258225024158077	-0.390420089483963	-0.26612010517043	-0.382882211150042	-9.27741734526422E-02	-6.67992776981743E-02	0	0	0	0
2560000000	-0.127295776352707	-3.98104202492154E-03	-0.265121411792352	-0.385238260387088	-0.272395326742743	-0.376672755857002	-9.32677553259924E-02	-6.71024833298245E-02	0	0	0	0
