! Version 1.0
! Name        :	Y-VF.s2p
! Measurement : Y
! Date        :	25-06-24 11:27:52
! Generated by:	MiQVNA
# HZ S RI R 50
! Freq	ReS11	ImS11	ReS21	ImS21	ReS12	ImS12	ReS22	ImS22	ReS13	ImS13	ReS23	ImS23
400000000	-9.40084868038911E-03	1.26296988624885E-02	0.477604127856376	-0.169187553812967	0.476028299841189	-0.170277254930265	-4.31065893234569E-03	-1.19211906143614E-02	0	0	0	0
420000000	-9.0937747902965E-03	1.37365303247186E-02	0.473453378078477	-0.176565505641552	0.472385626957126	-0.177224604702583	-4.11953658254681E-03	-1.16555105475279E-02	0	0	0	0
440000000	-9.19737815476676E-03	0.013098930586341	0.470457954169682	-0.184133406388749	0.469729633800071	-0.184689464160661	-0.004489709353436	-1.31413801950763E-02	0	0	0	0
460000000	-9.34471030567555E-03	1.32979695139909E-02	0.467750960672144	-0.19175986005766	0.467251693475852	-0.192361191897689	-3.79562527143956E-03	-1.46419270030128E-02	0	0	0	0
480000000	-9.9492064132963E-03	1.42251652234177E-02	0.463784428558639	-0.199716776598337	0.463446582977559	-0.199220939847517	-3.49376870150939E-03	-1.52763084540486E-02	0	0	0	0
500000000	-9.8395986050123E-03	1.46565069953244E-02	0.459590489509791	-0.207665006729655	0.459497803314629	-0.206667920115379	-3.36855726820856E-03	-1.54636078737436E-02	0	0	0	0
520000000	-1.08498790999633E-02	1.58266225348912E-02	0.455696468064266	-0.215672572502904	0.455486796667289	-0.213687889170371	-3.22627054648778E-03	-1.55845827608919E-02	0	0	0	0
540000000	-1.13257265389769E-02	1.55602998305404E-02	0.451189189382228	-0.224108918729522	0.45060917298844	-0.221717235859389	-4.51559996822443E-03	-1.58280550932348E-02	0	0	0	0
560000000	-1.15290920813116E-02	1.61995400732877E-02	0.446944110228756	-0.233297987929845	0.446010569124409	-0.230461639200064	-4.6663112670627E-03	-1.69939101212912E-02	0	0	0	0
580000000	-1.20898477363129E-02	0.016950506744709	0.444336025260345	-0.242144185985022	0.44137502715983	-0.239905771040499	-4.50245474623521E-03	-1.74936363567318E-02	0	0	0	0
600000000	-1.38275616024904E-02	1.66941243058317E-02	0.441446905516573	-0.249285521795557	0.437927294451286	-0.249508672819603	-5.62921542587267E-03	-1.84038671382612E-02	0	0	0	0
620000000	-1.40247458431226E-02	1.85673574961582E-02	0.438463148221894	-0.255457757257985	0.43524203865977	-0.257618920377489	-6.67576280584542E-03	-2.00257796582013E-02	0	0	0	0
640000000	-1.51419870825289E-02	1.78685934040213E-02	0.433345985152255	-0.261289173268076	0.430905893764588	-0.264405590030525	-6.42870742593303E-03	-2.10204269480079E-02	0	0	0	0
660000000	-1.57404496267822E-02	1.76164062144093E-02	0.429138239290042	-0.267594478162903	0.426408697407696	-0.271393240019865	-6.45080240694906E-03	-2.11081288405045E-02	0	0	0	0
680000000	-1.70773484906435E-02	1.85284850720854E-02	0.417295816510756	-0.27800152315135	0.418643773380552	-0.277246825439497	-6.72924304049081E-03	-0.022337374924633	0	0	0	0
700000000	-1.73389034090911E-02	1.88861910561616E-02	0.413853610208413	-0.283662865397107	0.413540901332619	-0.284390505335255	-6.93476483444033E-03	-2.48977541174619E-02	0	0	0	0
720000000	-1.79681623883308E-02	1.83813400239861E-02	0.409720803005901	-0.290226703470305	0.40874269360394	-0.290918438219277	-7.35507943667649E-03	-2.54184951812172E-02	0	0	0	0
740000000	-1.95011244529604E-02	1.95013463978588E-02	0.40534761513677	-0.296947135474195	0.404185763885002	-0.298395829138191	-7.73847856622747E-03	-2.77934112280163E-02	0	0	0	0
760000000	-0.019742022715851	1.96365003675009E-02	0.400911591217151	-0.303820000620784	0.398848451023202	-0.30465245459371	-7.69323954919507E-03	-2.79041226169776E-02	0	0	0	0
780000000	-2.07263638724987E-02	2.11656198177811E-02	0.39541617503678	-0.309859359673193	0.393506306140829	-0.311032641741149	-7.4153810734521E-03	-2.87527837270334E-02	0	0	0	0
800000000	-2.31536515485554E-02	2.16066753822644E-02	0.390354553842592	-0.315824793965442	0.388651981175881	-0.317494923928484	-7.67594335202574E-03	-3.01337999698014E-02	0	0	0	0
820000000	-2.42621004974752E-02	2.10467577879737E-02	0.382752875548603	-0.322295988726695	0.383683063757704	-0.32247966686717	-7.5902306959463E-03	-3.03204196353374E-02	0	0	0	0
840000000	-2.42341322062184E-02	0.02174011785386	0.37542309538211	-0.32922194100899	0.377034182894314	-0.327587337515772	-7.61666188268212E-03	-3.15738893297083E-02	0	0	0	0
860000000	-2.59691772103928E-02	2.15849698187827E-02	0.369292612473507	-0.336963842120695	0.370979959540761	-0.334279837097467	-8.53350384145203E-03	-3.21683297198657E-02	0	0	0	0
880000000	-2.69099125270933E-02	2.23876983142734E-02	0.363521629572138	-0.343584086278033	0.363159733081928	-0.341508688642752	-8.02916891474141E-03	-0.033423798118833	0	0	0	0
900000000	-2.76496020225229E-02	2.31702802289699E-02	0.358919833495124	-0.34898160105492	0.356613119890071	-0.349375094755186	-8.29038784097456E-03	-0.033591526377705	0	0	0	0
920000000	-2.91085936270221E-02	2.32849182311217E-02	0.353792770015408	-0.353931407067304	0.35247360487356	-0.356407391462045	-9.08268881080981E-03	-0.035438443769103	0	0	0	0
940000000	-3.00371826289443E-02	2.47168093113781E-02	0.346510899964717	-0.358446853897084	0.348497153655197	-0.362472536476438	-9.1488179077798E-03	-0.034415123826965	0	0	0	0
960000000	-2.96633587874656E-02	2.51164815234141E-02	0.338496823475105	-0.363195143400132	0.342936686471243	-0.366750887294887	-8.73905070430382E-03	-3.67239860867015E-02	0	0	0	0
980000000	-3.13642607023072E-02	2.49040515558498E-02	0.330201031223656	-0.369386142367648	0.334340318989478	-0.370235341769161	-9.56165875529051E-03	-3.61592199701504E-02	0	0	0	0
1000000000	-3.11650098150674E-02	2.61990332875717E-02	0.325145423921709	-0.377030305455512	0.32401357117024	-0.374532445611486	-1.06595027691716E-02	-3.69404084051497E-02	0	0	0	0
1020000000	-3.25346948349078E-02	2.76694168459017E-02	0.323228606129199	-0.383242920330057	0.31400782673568	-0.38199541535999	-1.12598533758953E-02	-3.80643621818658E-02	0	0	0	0
1040000000	-3.45184119067403E-02	2.74461716899066E-02	0.320365727923953	-0.385103706304265	0.307074069420457	-0.390497700453259	-1.07585298468349E-02	-3.87841027119246E-02	0	0	0	0
1060000000	-3.50385659722982E-02	2.82439384059319E-02	0.311776569273988	-0.384294273576064	0.305189702924216	-0.394678216296141	-1.11577864644745E-02	-3.80145495657263E-02	0	0	0	0
1080000000	-3.54869374299292E-02	2.89307450430106E-02	0.298235083983124	-0.389879659433788	0.300157362634852	-0.392739356589929	-1.09781506762832E-02	-0.038085723241814	0	0	0	0
1100000000	-3.58518854547733E-02	3.05971627972418E-02	0.28808600760394	-0.399989507610491	0.289686460796052	-0.393458668128221	-0.011852785744289	-3.81686958734697E-02	0	0	0	0
1120000000	-3.69158234252213E-02	3.17042959331927E-02	0.282462611664648	-0.407781760841721	0.278846682664975	-0.398441880876272	-1.31767835479565E-02	-3.89457404742425E-02	0	0	0	0
1140000000	-3.80367048260596E-02	0.033079553615578	0.276775690592259	-0.411724324222389	0.271032356435352	-0.404966766297554	-1.34520912889518E-02	-3.98674766694246E-02	0	0	0	0
1160000000	-3.89365808727404E-02	0.034326843226458	0.268278588770495	-0.413746022913031	0.265362712397798	-0.411846842883273	-1.40501093991425E-02	-4.14460393102876E-02	0	0	0	0
1180000000	-0.038492564868864	3.70659000956984E-02	0.261426147360661	-0.417400113828331	0.260373350163645	-0.419076930471523	-1.39826716298314E-02	-0.040615759850744	0	0	0	0
1200000000	-0.040562220347821	3.70374013323449E-02	0.253762858828434	-0.420216053393027	0.256258317234447	-0.424018312886426	-1.40216199774481E-02	-4.08120767262319E-02	0	0	0	0
1220000000	-4.15589005628451E-02	3.86422658346707E-02	0.246833172756039	-0.423910318660281	0.250093302867368	-0.427432693724131	-1.38942169375683E-02	-0.039897504067282	0	0	0	0
1240000000	-0.041878911343064	3.84276017543807E-02	0.240636723783933	-0.42677802803103	0.243364934959707	-0.429568010457763	-1.43039476996533E-02	-4.01020442956778E-02	0	0	0	0
1260000000	-4.27454892634653E-02	4.00928215360685E-02	0.234195314341849	-0.429400150698397	0.23401820454379	-0.431994983002903	-1.38227958633408E-02	-4.06485112487794E-02	0	0	0	0
1280000000	-4.53438826228872E-02	4.13215685813899E-02	0.227961420512636	-0.43292521159183	0.226126150926282	-0.43480547588818	-1.44251357328568E-02	-4.07282012657218E-02	0	0	0	0
1300000000	-0.044426300845311	4.21315269251868E-02	0.221407901948584	-0.43364816228112	0.21785115279925	-0.438728127646477	-1.28162626627686E-02	-4.11833371026327E-02	0	0	0	0
1320000000	-4.29538100178228E-02	4.43678237119845E-02	0.213118122647886	-0.437232211404367	0.210374957393184	-0.439389746717973	-1.26506262536715E-02	-0.040944046096559	0	0	0	0
1340000000	-4.41428885608127E-02	4.37735004326884E-02	0.204469219026999	-0.441471593573762	0.203619868045262	-0.439730213748164	-1.32613292566958E-02	-4.09083983784135E-02	0	0	0	0
1360000000	-4.50363244788713E-02	0.045350794352656	0.19635478641644	-0.445555882409386	0.194581648039679	-0.440982882967263	-1.41870284076394E-02	-4.04626802095402E-02	0	0	0	0
1380000000	-4.63176478106208E-02	4.77185480335513E-02	0.187128447688927	-0.448803543014771	0.186852862989583	-0.444837741817712	-1.41335167333869E-02	-4.07722257613301E-02	0	0	0	0
1400000000	-4.64979109186323E-02	4.97339882929286E-02	0.178384869936356	-0.452321332225303	0.179582882332783	-0.448241766849444	-1.39152017443396E-02	-0.040204898414625	0	0	0	0
1420000000	-4.69223278209945E-02	5.09324716872353E-02	0.170692526329706	-0.453920204460426	0.173244570949635	-0.451451005241092	-1.36228654981837E-02	-0.040585572635864	0	0	0	0
1440000000	-4.74601063156636E-02	5.38076595909367E-02	0.162493356047389	-0.456648285145103	0.165966516520246	-0.454896028778134	-1.32689141350037E-02	-4.03095846719554E-02	0	0	0	0
1460000000	-4.85878614536942E-02	5.32389677677335E-02	0.15681470901363	-0.457906204325853	0.158971475952374	-0.459005783662639	-1.40031755337459E-02	-4.08917375562404E-02	0	0	0	0
1480000000	-5.01093343798211E-02	5.51099592768133E-02	0.150259190474289	-0.458890201049466	0.150661890820434	-0.462549388698484	-1.36662150881474E-02	-4.02209904963032E-02	0	0	0	0
1500000000	-0.049889105929348	5.67247754206392E-02	0.145438046135144	-0.459044319504976	0.142303524614491	-0.465180455782651	-0.010635098627799	-4.03213427989609E-02	0	0	0	0
1520000000	-5.00397586647244E-02	5.83483396386563E-02	0.139951707381178	-0.458526643798833	0.135455427510571	-0.467796211409807	-9.44738108441312E-03	-3.80146617348193E-02	0	0	0	0
1540000000	-5.06873705626135E-02	5.78755351351611E-02	0.132508615382644	-0.459589899700867	0.129152759236353	-0.469422258756375	-9.82552325632952E-03	-3.73154579377343E-02	0	0	0	0
1560000000	-4.99230720933156E-02	6.01843400440784E-02	0.125304696584483	-0.462316240257038	0.121457685626093	-0.467681464827868	-1.09142609094985E-02	-3.67242314035591E-02	0	0	0	0
1580000000	-4.96458140436646E-02	6.05567017039467E-02	0.119797661310484	-0.46427762733798	0.110149636067878	-0.466588198008692	-9.57667280618215E-03	-3.71293543649247E-02	0	0	0	0
1600000000	-0.049804894545805	6.21765805626805E-02	0.112197839208161	-0.464873384977525	0.10090896145471	-0.46708091148339	-9.38491936040413E-03	-3.67976036313239E-02	0	0	0	0
1620000000	-4.97031670963488E-02	6.42753851259722E-02	0.103034514222893	-0.466776137529412	0.094273261469888	-0.468649536093495	-9.18628532459144E-03	-3.59494264636924E-02	0	0	0	0
1640000000	-5.03963913052726E-02	6.61075795445619E-02	9.41413138969275E-02	-0.470202719141513	8.70390351866554E-02	-0.468697986916357	-9.88220724956831E-03	-3.48097697900624E-02	0	0	0	0
1660000000	-4.88456829258473E-02	6.82627088420297E-02	8.57521239552185E-02	-0.473614530484506	7.84237784634315E-02	-0.469637188883146	-9.55081707393749E-03	-3.47004498516606E-02	0	0	0	0
1680000000	-5.00193371079761E-02	6.93024778069105E-02	7.79974498200939E-02	-0.473855310730146	7.00401472490481E-02	-0.471804477912	-1.02104841410761E-02	-3.47987884729121E-02	0	0	0	0
1700000000	-5.05029286888288E-02	7.07440381996242E-02	6.77051898196149E-02	-0.478339208381469	6.11547722218527E-02	-0.472737613473664	-9.50443548226467E-03	-3.45473762981809E-02	0	0	0	0
1720000000	-5.00376557630086E-02	7.30542615426925E-02	6.04532236952786E-02	-0.479089159367696	5.65882484119884E-02	-0.476399523517558	-8.01780917322137E-03	-3.25880758412486E-02	0	0	0	0
1740000000	-5.06364996546176E-02	7.37863600427222E-02	5.18316481620226E-02	-0.47986581269056	5.10896232702312E-02	-0.476428931962332	-7.32950219606623E-03	-3.22890129060061E-02	0	0	0	0
1760000000	-0.051846245530044	0.074958868418577	4.38022375255028E-02	-0.480717404342524	4.55321032714257E-02	-0.476194063696688	-5.32619666309801E-03	-0.031601066477941	0	0	0	0
1780000000	-5.04222730405963E-02	7.35527218237824E-02	3.62703999723328E-02	-0.480451337427847	3.79324882809062E-02	-0.475905999121713	-6.07664270808728E-03	-0.030982026783199	0	0	0	0
1800000000	-5.10913273717728E-02	7.59074957179583E-02	2.89290369031345E-02	-0.479590290902197	3.21749112772888E-02	-0.476937291393979	-5.38750998094402E-03	-3.09943770410259E-02	0	0	0	0
1820000000	-0.050875923485796	7.75843340572542E-02	2.18002355213629E-02	-0.47907616747185	2.57258603456718E-02	-0.477027845123865	-3.88466543808224E-03	-2.96802557046123E-02	0	0	0	0
1840000000	-5.16381778995923E-02	7.83851447327648E-02	1.55664078243554E-02	-0.478121083084061	1.81658327956571E-02	-0.476184631891802	-4.23879880565299E-03	-0.029503643161105	0	0	0	0
1860000000	-5.10993511233918E-02	7.91334914263405E-02	9.53342156717989E-03	-0.476830541109054	9.77618529896024E-03	-0.475166694732675	-4.89656591354259E-03	-2.93308419410029E-02	0	0	0	0
1880000000	-4.97521067132846E-02	7.86862013967558E-02	2.76779549941853E-03	-0.473813702221358	1.24294431013751E-03	-0.472443695568836	-3.76563939349549E-03	-2.92531628788298E-02	0	0	0	0
1900000000	-0.049436416745714	8.05490859657687E-02	-5.05517074618569E-03	-0.473127554088488	-8.79133771041594E-03	-0.471692816213116	-3.9067924441049E-03	-2.93929522549693E-02	0	0	0	0
1920000000	-4.99393239248161E-02	8.14515631457327E-02	-1.28384355997476E-02	-0.474904014994174	-1.72131383311879E-02	-0.471224493509541	-2.66734619711994E-03	-2.92890271811235E-02	0	0	0	0
1940000000	-4.98637271478684E-02	8.28032676590881E-02	-2.12742332041225E-02	-0.477619998449695	-0.024663999620592	-0.47108201257212	-1.7141773368533E-03	-0.02954431338247	0	0	0	0
1960000000	-4.86543747063371E-02	8.23127782072808E-02	-3.03445240340682E-02	-0.475823981790863	-0.030614475400293	-0.470744820025919	-1.3874692029932E-03	-2.88431704066239E-02	0	0	0	0
1980000000	-0.048243697830246	0.082530483136321	-3.79609759162468E-02	-0.476028657767859	-3.81996596797244E-02	-0.470586039816154	-1.06164261443693E-03	-3.02115388857758E-02	0	0	0	0
2000000000	-4.68023473144793E-02	8.42661188996721E-02	-4.70924187089698E-02	-0.477877432629981	-4.43201861782119E-02	-0.472043078360022	-2.40812785457915E-04	-2.96063815761583E-02	0	0	0	0
2020000000	-4.79321898699154E-02	0.084777100427202	-5.48345558409704E-02	-0.47855343342033	-5.05801062914457E-02	-0.473226263219045	3.33760707567115E-04	-2.95954957780843E-02	0	0	0	0
2040000000	-4.71192336931482E-02	8.39022490488064E-02	-6.17465094274426E-02	-0.477284966222304	-5.56859285707879E-02	-0.474355442170352	2.31793275511007E-03	-2.98296556063264E-02	0	0	0	0
2060000000	-4.56244609296141E-02	8.35762750776433E-02	-6.87952433425967E-02	-0.475005124525048	-6.21347780003482E-02	-0.474994949895546	1.90328044725611E-03	-3.03733751457484E-02	0	0	0	0
2080000000	-4.58781856015165E-02	8.55042084967991E-02	-0.074900159816488	-0.472102302670557	-6.96041753293645E-02	-0.474439099307672	2.55525865598843E-03	-2.97784161893482E-02	0	0	0	0
2100000000	-4.45542942291439E-02	8.44441648943841E-02	-8.11033240131255E-02	-0.468504145664407	-7.82560300238258E-02	-0.474755456276595	3.48446815081023E-03	-2.94746710465976E-02	0	0	0	0
2120000000	-4.44512228154908E-02	8.49876781066471E-02	-8.75366725810921E-02	-0.464023655742068	-8.65188625220716E-02	-0.473302847221277	3.49865725352608E-03	-2.99533301017083E-02	0	0	0	0
2140000000	-4.50956140512722E-02	8.56418994178295E-02	-0.094319609443572	-0.460698393049789	-0.094941411666891	-0.469936994590592	3.65211292267706E-03	-3.11134892003312E-02	0	0	0	0
2160000000	-0.044067942332201	8.53327973157126E-02	-0.100486866341197	-0.457794169160945	-0.103569590138015	-0.466398265093316	5.60332820706044E-03	-3.12289008130894E-02	0	0	0	0
2180000000	-4.33197344235823E-02	8.49684044718368E-02	-0.107776992510828	-0.456240035351935	-0.11495759369659	-0.461926591619103	6.33198645406037E-03	-3.16220729901032E-02	0	0	0	0
2200000000	-4.32382658538407E-02	8.43709212841388E-02	-0.11447708022115	-0.455615600032585	-0.124860013592651	-0.458907815652045	5.97613357373784E-03	-3.03244491429313E-02	0	0	0	0
2220000000	-4.23625499144799E-02	8.34631213351609E-02	-0.123270078048887	-0.455884397441736	-0.132927354738069	-0.455641255246898	7.27314862529216E-03	-3.18457198290913E-02	0	0	0	0
2240000000	-3.96649522615753E-02	8.35533630530935E-02	-0.131361958696626	-0.45765845600735	-0.140917791288358	-0.452390778115336	9.4298206987941E-03	-3.13537847281942E-02	0	0	0	0
2260000000	-4.01259595883106E-02	8.09227501752413E-02	-0.139511250396072	-0.456745386143986	-0.147532671451557	-0.449235818393776	9.78638543575652E-03	-3.10439216695145E-02	0	0	0	0
2280000000	-3.92562763339572E-02	8.14655758123516E-02	-0.147317210603144	-0.455273283185388	-0.153202263165723	-0.447514634333069	9.93722919445751E-03	-0.03145327831519	0	0	0	0
2300000000	-3.73894218128385E-02	8.14757350974569E-02	-0.15624033160066	-0.453738803916163	-0.158326743166941	-0.444841137665966	1.11184278306155E-02	-3.15113354809084E-02	0	0	0	0
2320000000	-3.73328123584301E-02	7.96053644557418E-02	-0.165175359920435	-0.45240891591842	-0.164519759874218	-0.443403568652094	1.22958354911751E-02	-3.20020062605159E-02	0	0	0	0
2340000000	-0.036267706727451	8.00852961107043E-02	-0.17161955774816	-0.448811084177312	-0.171121858700525	-0.442801243485693	1.26030874692367E-02	-3.33447823825465E-02	0	0	0	0
2360000000	-3.52738088842106E-02	7.78673916491452E-02	-0.178356671747526	-0.444199798452471	-0.175537976346705	-0.441919710161731	1.29192683722131E-02	-3.37116200226966E-02	0	0	0	0
2380000000	-3.47560607760234E-02	7.84891149019313E-02	-0.185572085797465	-0.439441025688776	-0.182181667543702	-0.439307960618508	1.39440004554926E-02	-3.44456671456975E-02	0	0	0	0
2400000000	-3.21997073940467E-02	0.076686683437726	-0.191494676670971	-0.434650303399422	-0.189520929270163	-0.437039423084582	1.45096066669884E-02	-3.57257570657728E-02	0	0	0	0
2420000000	-3.18023268651754E-02	7.71727494972685E-02	-0.197365062997528	-0.429987505477137	-0.197337078060361	-0.434010561048699	1.43258214004533E-02	-3.60131975225553E-02	0	0	0	0
2440000000	-3.01961288719923E-02	7.58621432344189E-02	-0.204145274056903	-0.424526035916996	-0.204370320546798	-0.429456379816679	1.55928025053658E-02	-3.51136094196364E-02	0	0	0	0
2460000000	-2.90568951177771E-02	7.61314685834702E-02	-0.211040312799444	-0.420094445218984	-0.213070343734694	-0.424345169793741	1.66685105373583E-02	-3.58175145329382E-02	0	0	0	0
2480000000	-2.90249655646207E-02	7.59302378959751E-02	-0.219071277565686	-0.416420063361998	-0.221209003001295	-0.41857901276196	1.58925369537926E-02	-3.60274778843182E-02	0	0	0	0
2500000000	-0.028687650438879	7.47268499151047E-02	-0.226203188217074	-0.413751743937636	-0.229127630697963	-0.413307620307708	1.67057460474874E-02	-3.72676406349272E-02	0	0	0	0
2520000000	-2.74122402798759E-02	7.42256588979939E-02	-0.233147533410707	-0.410765761960167	-0.237628874613138	-0.409050173943825	1.75720816495322E-02	-3.72480192198773E-02	0	0	0	0
2540000000	-2.71435216562374E-02	7.29132674561432E-02	-0.241070763435269	-0.407250458703301	-0.243552283345906	-0.404952846370552	1.72894902068482E-02	-3.91903305720742E-02	0	0	0	0
2560000000	-2.79621054755442E-02	7.12358643775863E-02	-0.248570816704877	-0.403620794308373	-0.249958125861014	-0.399750576225978	1.74286407726137E-02	-4.01988338761554E-02	0	0	0	0
2580000000	-2.64047049868898E-02	7.11588201040671E-02	-0.25550290403529	-0.399103061710364	-0.257507845275862	-0.396319948616105	1.87774671169795E-02	-4.15002401114922E-02	0	0	0	0
